      * g:\esim-workspace\water_level_indicator\water_level_indicator.cir
      Transient Analysis  Tue Apr 28 19:51:29  2020
--------------------------------------------------------------------------------
Index   time            v1#branch       v2#branch       v3#branch       
--------------------------------------------------------------------------------
0	0.000000e+00	5.172507e-12	5.172507e-12	5.172507e-12	
1	1.000000e-03	5.172507e-12	5.172507e-12	5.172507e-12	
2	2.000000e-03	5.172507e-12	5.172507e-12	5.172507e-12	
3	4.000000e-03	5.172507e-12	5.172507e-12	5.172507e-12	
4	8.000000e-03	5.172507e-12	5.172507e-12	5.172507e-12	
5	1.600000e-02	5.172507e-12	5.172507e-12	5.172507e-12	
6	3.200000e-02	5.172507e-12	5.172507e-12	5.172507e-12	
7	6.400000e-02	5.172507e-12	5.172507e-12	5.172507e-12	
8	1.280000e-01	5.172507e-12	5.172507e-12	5.172507e-12	
9	2.560000e-01	5.172507e-12	5.172507e-12	5.172507e-12	
10	4.560000e-01	5.172507e-12	5.172507e-12	5.172507e-12	
11	6.560000e-01	5.172507e-12	5.172507e-12	5.172507e-12	
12	8.560000e-01	5.172507e-12	5.172507e-12	5.172507e-12	
13	1.000000e+00	5.172507e-12	5.172507e-12	5.172507e-12	
14	1.000100e+00	-1.51556e-08	5.172507e-12	5.172507e-12	
15	1.000300e+00	-1.76084e-08	5.172507e-12	5.172507e-12	
16	1.000700e+00	-1.20799e-05	5.172507e-12	5.172507e-12	
17	1.001000e+00	-1.13271e-04	5.172507e-12	5.172507e-12	
18	1.001018e+00	-1.13261e-04	5.172507e-12	5.172507e-12	
19	1.001055e+00	-1.13262e-04	5.172507e-12	5.172507e-12	
20	1.001129e+00	-1.13262e-04	5.172507e-12	5.172507e-12	
21	1.001277e+00	-1.13262e-04	5.172507e-12	5.172507e-12	
22	1.001573e+00	-1.13262e-04	5.172507e-12	5.172507e-12	
23	1.002165e+00	-1.13262e-04	5.172507e-12	5.172507e-12	
24	1.003348e+00	-1.13262e-04	5.172507e-12	5.172507e-12	
25	1.005714e+00	-1.13262e-04	5.172507e-12	5.172507e-12	
26	1.010447e+00	-1.13262e-04	5.172507e-12	5.172507e-12	
27	1.019912e+00	-1.13262e-04	5.172507e-12	5.172507e-12	
28	1.038843e+00	-1.13262e-04	5.172507e-12	5.172507e-12	
29	1.076704e+00	-1.13262e-04	5.172507e-12	5.172507e-12	
30	1.152426e+00	-1.13262e-04	5.172507e-12	5.172507e-12	
31	1.303870e+00	-1.13262e-04	5.172507e-12	5.172507e-12	
32	1.503870e+00	-1.13262e-04	5.172507e-12	5.172507e-12	
33	1.703870e+00	-1.13262e-04	5.172507e-12	5.172507e-12	
34	1.903870e+00	-1.13262e-04	5.172507e-12	5.172507e-12	
35	2.103870e+00	-1.13262e-04	5.172507e-12	5.172507e-12	
36	2.303870e+00	-1.13262e-04	5.172507e-12	5.172507e-12	
37	2.503870e+00	-1.13262e-04	5.172507e-12	5.172507e-12	
38	2.703870e+00	-1.13262e-04	5.172507e-12	5.172507e-12	
39	2.903870e+00	-1.13262e-04	5.172507e-12	5.172507e-12	
40	3.000000e+00	-1.13262e-04	5.172507e-12	5.172507e-12	
41	3.000100e+00	3.896666e-07	-1.51556e-08	5.172507e-12	
42	3.000300e+00	-4.22135e-07	-1.76084e-08	5.172507e-12	
43	3.000407e+00	3.827321e-07	-2.11290e-08	5.172507e-12	
44	3.000511e+00	-4.77546e-07	-7.57570e-08	5.172507e-12	
45	3.000718e+00	-1.61234e-05	-1.63069e-05	5.172507e-12	
46	3.000975e+00	-1.03644e-04	-1.03584e-04	5.172507e-12	
47	3.001000e+00	-1.13168e-04	-1.13217e-04	5.172507e-12	
48	3.001003e+00	-1.13254e-04	-1.13257e-04	5.172507e-12	
49	3.001010e+00	-1.13265e-04	-1.13264e-04	5.172507e-12	
50	3.001024e+00	-1.13257e-04	-1.13260e-04	5.172507e-12	
51	3.001051e+00	-1.13266e-04	-1.13264e-04	5.172507e-12	
52	3.001105e+00	-1.13258e-04	-1.13260e-04	5.172507e-12	
53	3.001212e+00	-1.13266e-04	-1.13264e-04	5.172507e-12	
54	3.001428e+00	-1.13258e-04	-1.13260e-04	5.172507e-12	

Index   time            v1#branch       v2#branch       v3#branch       
--------------------------------------------------------------------------------
55	3.001860e+00	-1.13266e-04	-1.13264e-04	5.172507e-12	
56	3.002723e+00	-1.13258e-04	-1.13260e-04	5.172507e-12	
57	3.004449e+00	-1.13266e-04	-1.13264e-04	5.172507e-12	
58	3.007901e+00	-1.13258e-04	-1.13260e-04	5.172507e-12	
59	3.014804e+00	-1.13266e-04	-1.13264e-04	5.172507e-12	
60	3.028612e+00	-1.13258e-04	-1.13260e-04	5.172507e-12	
61	3.056228e+00	-1.13266e-04	-1.13264e-04	5.172507e-12	
62	3.111459e+00	-1.13258e-04	-1.13260e-04	5.172507e-12	
63	3.221922e+00	-1.13266e-04	-1.13264e-04	5.172507e-12	
64	3.421922e+00	-1.13258e-04	-1.13260e-04	5.172507e-12	
65	3.621922e+00	-1.13266e-04	-1.13264e-04	5.172507e-12	
66	3.821922e+00	-1.13258e-04	-1.13260e-04	5.172507e-12	
67	4.021922e+00	-1.13266e-04	-1.13264e-04	5.172507e-12	
68	4.221922e+00	-1.13258e-04	-1.13260e-04	5.172507e-12	
69	4.421922e+00	-1.13266e-04	-1.13264e-04	5.172507e-12	
70	4.621922e+00	-1.13258e-04	-1.13260e-04	5.172507e-12	
71	4.821922e+00	-1.13266e-04	-1.13264e-04	5.172507e-12	
72	5.000000e+00	2.768416e-08	-1.13260e-04	5.172507e-12	
73	5.000100e+00	-1.51466e-08	3.896933e-07	-1.51556e-08	
74	5.000300e+00	-1.76174e-08	-4.22162e-07	-1.76084e-08	
75	5.000407e+00	-2.11199e-08	3.827587e-07	-2.11290e-08	
76	5.000511e+00	-7.57654e-08	-4.77572e-07	-7.57564e-08	
77	5.000718e+00	-1.63067e-05	-1.61232e-05	-1.63067e-05	
78	5.000975e+00	-1.03584e-04	-1.03644e-04	-1.03584e-04	
79	5.001000e+00	-1.13217e-04	-1.13168e-04	-1.13217e-04	
80	5.001003e+00	-1.13257e-04	-1.13254e-04	-1.13257e-04	
81	5.001010e+00	-1.13264e-04	-1.13265e-04	-1.13264e-04	
82	5.001024e+00	-1.13260e-04	-1.13257e-04	-1.13260e-04	
83	5.001051e+00	-1.13264e-04	-1.13266e-04	-1.13264e-04	
84	5.001105e+00	-1.13260e-04	-1.13258e-04	-1.13260e-04	
85	5.001212e+00	-1.13264e-04	-1.13266e-04	-1.13264e-04	
86	5.001428e+00	-1.13260e-04	-1.13258e-04	-1.13260e-04	
87	5.001860e+00	-1.13264e-04	-1.13266e-04	-1.13264e-04	
88	5.002723e+00	-1.13260e-04	-1.13258e-04	-1.13260e-04	
89	5.004449e+00	-1.13264e-04	-1.13266e-04	-1.13264e-04	
90	5.007901e+00	-1.13260e-04	-1.13258e-04	-1.13260e-04	
91	5.014805e+00	-1.13264e-04	-1.13266e-04	-1.13264e-04	
92	5.028612e+00	-1.13260e-04	-1.13258e-04	-1.13260e-04	
93	5.056228e+00	-1.13264e-04	-1.13266e-04	-1.13264e-04	
94	5.111460e+00	-1.13260e-04	-1.13258e-04	-1.13260e-04	
95	5.221923e+00	-1.13264e-04	-1.13266e-04	-1.13264e-04	
96	5.421923e+00	-1.13260e-04	-1.13258e-04	-1.13260e-04	
97	5.621923e+00	-1.13264e-04	-1.13266e-04	-1.13264e-04	
98	5.821923e+00	-1.13260e-04	-1.13258e-04	-1.13260e-04	
99	6.021923e+00	-1.13264e-04	-1.13266e-04	-1.13264e-04	
100	6.221923e+00	-1.13260e-04	-1.13258e-04	-1.13260e-04	
101	6.421923e+00	-1.13264e-04	-1.13266e-04	-1.13264e-04	
102	6.621923e+00	-1.13260e-04	-1.13258e-04	-1.13260e-04	
103	6.821923e+00	-1.13264e-04	-1.13266e-04	-1.13264e-04	
104	7.000000e+00	1.425848e-08	2.768573e-08	-1.13260e-04	
105	7.000100e+00	-1.51510e-08	-1.51466e-08	3.896933e-07	
106	7.000300e+00	-1.76130e-08	-1.76174e-08	-4.22162e-07	
107	7.000407e+00	-2.11243e-08	-2.11199e-08	3.827587e-07	
108	7.000511e+00	-7.57610e-08	-7.57654e-08	-4.77572e-07	
109	7.000718e+00	-1.63067e-05	-1.63067e-05	-1.61232e-05	
110	7.000974e+00	-1.03238e-04	-1.03238e-04	-1.03298e-04	
111	7.001000e+00	-1.13269e-04	-1.13269e-04	-1.13213e-04	
112	7.001003e+00	-1.13261e-04	-1.13261e-04	-1.13258e-04	

Index   time            v1#branch       v2#branch       v3#branch       
--------------------------------------------------------------------------------
113	7.001010e+00	-1.13261e-04	-1.13261e-04	-1.13264e-04	
114	7.001024e+00	-1.13262e-04	-1.13262e-04	-1.13260e-04	
115	7.001052e+00	-1.13261e-04	-1.13261e-04	-1.13264e-04	
116	7.001108e+00	-1.13262e-04	-1.13262e-04	-1.13260e-04	
117	7.001219e+00	-1.13261e-04	-1.13261e-04	-1.13264e-04	
118	7.001441e+00	-1.13262e-04	-1.13262e-04	-1.13260e-04	
119	7.001886e+00	-1.13261e-04	-1.13261e-04	-1.13263e-04	
120	7.002776e+00	-1.13262e-04	-1.13262e-04	-1.13260e-04	
121	7.004555e+00	-1.13261e-04	-1.13261e-04	-1.13263e-04	
122	7.008113e+00	-1.13262e-04	-1.13262e-04	-1.13260e-04	
123	7.015229e+00	-1.13261e-04	-1.13261e-04	-1.13263e-04	
124	7.029462e+00	-1.13262e-04	-1.13262e-04	-1.13260e-04	
125	7.057928e+00	-1.13261e-04	-1.13261e-04	-1.13263e-04	
126	7.114859e+00	-1.13262e-04	-1.13262e-04	-1.13260e-04	
127	7.228721e+00	-1.13261e-04	-1.13261e-04	-1.13263e-04	
128	7.428721e+00	-1.13262e-04	-1.13262e-04	-1.13260e-04	
129	7.628721e+00	-1.13261e-04	-1.13261e-04	-1.13263e-04	
130	7.828721e+00	-1.13262e-04	-1.13262e-04	-1.13260e-04	
131	8.028721e+00	-1.13261e-04	-1.13261e-04	-1.13263e-04	
132	8.228721e+00	-1.13262e-04	-1.13262e-04	-1.13260e-04	
133	8.428721e+00	-1.13261e-04	-1.13261e-04	-1.13263e-04	
134	8.628721e+00	-1.13262e-04	-1.13262e-04	-1.13260e-04	
135	8.828721e+00	-1.13261e-04	-1.13261e-04	-1.13263e-04	
136	9.028721e+00	-1.13262e-04	-1.13262e-04	-1.13260e-04	
137	9.228721e+00	-1.13261e-04	-1.13261e-04	-1.13263e-04	
138	9.428721e+00	-1.13262e-04	-1.13262e-04	-1.13260e-04	
139	9.628721e+00	-1.13261e-04	-1.13261e-04	-1.13263e-04	
140	9.828721e+00	-1.13262e-04	-1.13262e-04	-1.13260e-04	
141	1.000000e+01	-1.13261e-04	-1.13261e-04	-1.13263e-04	

      * g:\esim-workspace\water_level_indicator\water_level_indicator.cir
      Transient Analysis  Tue Apr 28 19:51:29  2020
--------------------------------------------------------------------------------
Index   time            v4#branch       v5#branch       v_u5#branch     
--------------------------------------------------------------------------------
0	0.000000e+00	5.172507e-12	-4.07612e-11	1.019052e-11	
1	1.000000e-03	5.172507e-12	-4.07586e-11	1.018965e-11	
2	2.000000e-03	5.172507e-12	-4.07586e-11	1.018965e-11	
3	4.000000e-03	5.172507e-12	-4.07586e-11	1.018965e-11	
4	8.000000e-03	5.172507e-12	-4.07603e-11	1.019009e-11	
5	1.600000e-02	5.172507e-12	-4.07711e-11	1.019251e-11	
6	3.200000e-02	5.172507e-12	-4.07633e-11	1.019152e-11	
7	6.400000e-02	5.172507e-12	-4.07693e-11	1.019324e-11	
8	1.280000e-01	5.172507e-12	-4.07577e-11	1.018965e-11	
9	2.560000e-01	5.172507e-12	-4.07568e-11	1.019008e-11	
10	4.560000e-01	5.172507e-12	-4.07646e-11	1.019165e-11	
11	6.560000e-01	5.172507e-12	-4.07646e-11	1.019165e-11	
12	8.560000e-01	5.172507e-12	-4.07646e-11	1.019165e-11	
13	1.000000e+00	5.172507e-12	-4.07645e-11	1.019161e-11	
14	1.000100e+00	5.172507e-12	1.818583e-09	-1.84915e-09	
15	1.000300e+00	5.172507e-12	-2.80328e-10	2.497567e-10	
16	1.000700e+00	5.172507e-12	-3.65835e-03	3.658350e-03	
17	1.001000e+00	5.172507e-12	-3.10422e-02	3.104222e-02	
18	1.001018e+00	5.172507e-12	-3.10649e-02	3.106487e-02	
19	1.001055e+00	5.172507e-12	-3.10650e-02	3.106496e-02	
20	1.001129e+00	5.172507e-12	-3.10647e-02	3.106471e-02	
21	1.001277e+00	5.172507e-12	-3.10650e-02	3.106496e-02	
22	1.001573e+00	5.172507e-12	-3.10647e-02	3.106471e-02	
23	1.002165e+00	5.172507e-12	-3.10650e-02	3.106495e-02	
24	1.003348e+00	5.172507e-12	-3.10647e-02	3.106471e-02	
25	1.005714e+00	5.172507e-12	-3.10650e-02	3.106495e-02	
26	1.010447e+00	5.172507e-12	-3.10647e-02	3.106471e-02	
27	1.019912e+00	5.172507e-12	-3.10650e-02	3.106495e-02	
28	1.038843e+00	5.172507e-12	-3.10647e-02	3.106471e-02	
29	1.076704e+00	5.172507e-12	-3.10650e-02	3.106495e-02	
30	1.152426e+00	5.172507e-12	-3.10647e-02	3.106471e-02	
31	1.303870e+00	5.172507e-12	-3.10650e-02	3.106495e-02	
32	1.503870e+00	5.172507e-12	-3.10647e-02	3.106471e-02	
33	1.703870e+00	5.172507e-12	-3.10650e-02	3.106495e-02	
34	1.903870e+00	5.172507e-12	-3.10647e-02	3.106471e-02	
35	2.103870e+00	5.172507e-12	-3.10650e-02	3.106495e-02	
36	2.303870e+00	5.172507e-12	-3.10647e-02	3.106471e-02	
37	2.503870e+00	5.172507e-12	-3.10650e-02	3.106495e-02	
38	2.703870e+00	5.172507e-12	-3.10647e-02	3.106471e-02	
39	2.903870e+00	5.172507e-12	-3.10650e-02	3.106495e-02	
40	3.000000e+00	5.172507e-12	-3.10647e-02	3.106471e-02	
41	3.000100e+00	5.172507e-12	-8.08777e-08	8.270652e-08	
42	3.000300e+00	5.172507e-12	8.407439e-08	-8.43445e-08	
43	3.000407e+00	5.172507e-12	-3.50779e-07	2.199338e-07	
44	3.000511e+00	5.172507e-12	-1.44743e-05	7.070239e-06	
45	3.000718e+00	5.172507e-12	-1.00362e-02	5.052484e-03	
46	3.000975e+00	5.172507e-12	-5.75033e-02	2.871179e-02	
47	3.001000e+00	5.172507e-12	-6.22195e-02	3.114630e-02	
48	3.001003e+00	5.172507e-12	-6.21418e-02	3.107269e-02	
49	3.001010e+00	5.172507e-12	-6.21211e-02	3.105918e-02	
50	3.001024e+00	5.172507e-12	-6.21382e-02	3.107049e-02	
51	3.001051e+00	5.172507e-12	-6.21214e-02	3.105934e-02	
52	3.001105e+00	5.172507e-12	-6.21378e-02	3.107026e-02	
53	3.001212e+00	5.172507e-12	-6.21216e-02	3.105946e-02	
54	3.001428e+00	5.172507e-12	-6.21378e-02	3.107020e-02	

Index   time            v4#branch       v5#branch       v_u5#branch     
--------------------------------------------------------------------------------
55	3.001860e+00	5.172507e-12	-6.21216e-02	3.105948e-02	
56	3.002723e+00	5.172507e-12	-6.21377e-02	3.107019e-02	
57	3.004449e+00	5.172507e-12	-6.21216e-02	3.105949e-02	
58	3.007901e+00	5.172507e-12	-6.21377e-02	3.107018e-02	
59	3.014804e+00	5.172507e-12	-6.21216e-02	3.105949e-02	
60	3.028612e+00	5.172507e-12	-6.21377e-02	3.107018e-02	
61	3.056228e+00	5.172507e-12	-6.21216e-02	3.105949e-02	
62	3.111459e+00	5.172507e-12	-6.21377e-02	3.107018e-02	
63	3.221922e+00	5.172507e-12	-6.21216e-02	3.105949e-02	
64	3.421922e+00	5.172507e-12	-6.21377e-02	3.107018e-02	
65	3.621922e+00	5.172507e-12	-6.21216e-02	3.105949e-02	
66	3.821922e+00	5.172507e-12	-6.21377e-02	3.107018e-02	
67	4.021922e+00	5.172507e-12	-6.21216e-02	3.105949e-02	
68	4.221922e+00	5.172507e-12	-6.21377e-02	3.107018e-02	
69	4.421922e+00	5.172507e-12	-6.21216e-02	3.105949e-02	
70	4.621922e+00	5.172507e-12	-6.21377e-02	3.107018e-02	
71	4.821922e+00	5.172507e-12	-6.21216e-02	3.105949e-02	
72	5.000000e+00	5.172507e-12	-3.10675e-02	4.237060e-09	
73	5.000100e+00	5.172507e-12	-7.90275e-08	-1.84802e-09	
74	5.000300e+00	5.172507e-12	8.384389e-08	2.486243e-10	
75	5.000407e+00	5.172507e-12	-4.81601e-07	1.308255e-07	
76	5.000511e+00	5.172507e-12	-2.18780e-05	7.403927e-06	
77	5.000718e+00	5.172507e-12	-1.50198e-02	4.983661e-03	
78	5.000975e+00	5.172507e-12	-8.62946e-02	2.879144e-02	
79	5.001000e+00	5.172507e-12	-9.32927e-02	3.107320e-02	
80	5.001003e+00	5.172507e-12	-9.32108e-02	3.106907e-02	
81	5.001010e+00	5.172507e-12	-9.31830e-02	3.106191e-02	
82	5.001024e+00	5.172507e-12	-9.32059e-02	3.106770e-02	
83	5.001051e+00	5.172507e-12	-9.31835e-02	3.106205e-02	
84	5.001105e+00	5.172507e-12	-9.32054e-02	3.106758e-02	
85	5.001212e+00	5.172507e-12	-9.31837e-02	3.106211e-02	
86	5.001428e+00	5.172507e-12	-9.32053e-02	3.106755e-02	
87	5.001860e+00	5.172507e-12	-9.31837e-02	3.106212e-02	
88	5.002723e+00	5.172507e-12	-9.32053e-02	3.106754e-02	
89	5.004449e+00	5.172507e-12	-9.31837e-02	3.106213e-02	
90	5.007901e+00	5.172507e-12	-9.32053e-02	3.106754e-02	
91	5.014805e+00	5.172507e-12	-9.31837e-02	3.106213e-02	
92	5.028612e+00	5.172507e-12	-9.32053e-02	3.106754e-02	
93	5.056228e+00	5.172507e-12	-9.31837e-02	3.106213e-02	
94	5.111460e+00	5.172507e-12	-9.32053e-02	3.106754e-02	
95	5.221923e+00	5.172507e-12	-9.31837e-02	3.106213e-02	
96	5.421923e+00	5.172507e-12	-9.32053e-02	3.106754e-02	
97	5.621923e+00	5.172507e-12	-9.31837e-02	3.106213e-02	
98	5.821923e+00	5.172507e-12	-9.32053e-02	3.106754e-02	
99	6.021923e+00	5.172507e-12	-9.31837e-02	3.106213e-02	
100	6.221923e+00	5.172507e-12	-9.32053e-02	3.106754e-02	
101	6.421923e+00	5.172507e-12	-9.31837e-02	3.106213e-02	
102	6.621923e+00	5.172507e-12	-9.32053e-02	3.106754e-02	
103	6.821923e+00	5.172507e-12	-9.31837e-02	3.106213e-02	
104	7.000000e+00	5.172507e-12	-3.10675e-02	-5.53827e-10	
105	7.000100e+00	-1.51556e-08	-7.71687e-08	-1.84857e-09	
106	7.000300e+00	-1.76083e-08	8.360490e-08	2.491815e-10	
107	7.000407e+00	-2.11285e-08	-6.12416e-07	1.308249e-07	
108	7.000511e+00	-7.57302e-08	-2.92820e-05	7.403930e-06	
109	7.000718e+00	-1.62979e-05	-2.00348e-02	4.983661e-03	
110	7.000974e+00	-1.02987e-04	-1.15776e-01	2.870967e-02	
111	7.001000e+00	-1.12975e-04	-1.25486e-01	3.105455e-02	
112	7.001003e+00	-1.12968e-04	-1.25452e-01	3.106471e-02	

Index   time            v4#branch       v5#branch       v_u5#branch     
--------------------------------------------------------------------------------
113	7.001010e+00	-1.12969e-04	-1.25447e-01	3.106543e-02	
114	7.001024e+00	-1.12969e-04	-1.25450e-01	3.106427e-02	
115	7.001052e+00	-1.12969e-04	-1.25447e-01	3.106538e-02	
116	7.001108e+00	-1.12969e-04	-1.25449e-01	3.106429e-02	
117	7.001219e+00	-1.12969e-04	-1.25447e-01	3.106537e-02	
118	7.001441e+00	-1.12969e-04	-1.25449e-01	3.106430e-02	
119	7.001886e+00	-1.12969e-04	-1.25447e-01	3.106537e-02	
120	7.002776e+00	-1.12969e-04	-1.25449e-01	3.106430e-02	
121	7.004555e+00	-1.12969e-04	-1.25447e-01	3.106537e-02	
122	7.008113e+00	-1.12969e-04	-1.25449e-01	3.106430e-02	
123	7.015229e+00	-1.12969e-04	-1.25447e-01	3.106537e-02	
124	7.029462e+00	-1.12969e-04	-1.25449e-01	3.106430e-02	
125	7.057928e+00	-1.12969e-04	-1.25447e-01	3.106537e-02	
126	7.114859e+00	-1.12969e-04	-1.25449e-01	3.106430e-02	
127	7.228721e+00	-1.12969e-04	-1.25447e-01	3.106537e-02	
128	7.428721e+00	-1.12969e-04	-1.25449e-01	3.106430e-02	
129	7.628721e+00	-1.12969e-04	-1.25447e-01	3.106537e-02	
130	7.828721e+00	-1.12969e-04	-1.25449e-01	3.106430e-02	
131	8.028721e+00	-1.12969e-04	-1.25447e-01	3.106537e-02	
132	8.228721e+00	-1.12969e-04	-1.25449e-01	3.106430e-02	
133	8.428721e+00	-1.12969e-04	-1.25447e-01	3.106537e-02	
134	8.628721e+00	-1.12969e-04	-1.25449e-01	3.106430e-02	
135	8.828721e+00	-1.12969e-04	-1.25447e-01	3.106537e-02	
136	9.028721e+00	-1.12969e-04	-1.25449e-01	3.106430e-02	
137	9.228721e+00	-1.12969e-04	-1.25447e-01	3.106537e-02	
138	9.428721e+00	-1.12969e-04	-1.25449e-01	3.106430e-02	
139	9.628721e+00	-1.12969e-04	-1.25447e-01	3.106537e-02	
140	9.828721e+00	-1.12969e-04	-1.25449e-01	3.106430e-02	
141	1.000000e+01	-1.12969e-04	-1.25447e-01	3.106537e-02	

      * g:\esim-workspace\water_level_indicator\water_level_indicator.cir
      Transient Analysis  Tue Apr 28 19:51:29  2020
--------------------------------------------------------------------------------
Index   time            v_u6#branch     v_u7#branch     v_u8#branch     
--------------------------------------------------------------------------------
0	0.000000e+00	1.019052e-11	1.019052e-11	1.018918e-11	
1	1.000000e-03	1.018965e-11	1.018965e-11	1.018919e-11	
2	2.000000e-03	1.018965e-11	1.018965e-11	1.018919e-11	
3	4.000000e-03	1.018965e-11	1.018965e-11	1.018919e-11	
4	8.000000e-03	1.019008e-11	1.019009e-11	1.018918e-11	
5	1.600000e-02	1.019251e-11	1.019251e-11	1.019273e-11	
6	3.200000e-02	1.019151e-11	1.019152e-11	1.018919e-11	
7	6.400000e-02	1.019324e-11	1.019324e-11	1.018919e-11	
8	1.280000e-01	1.018964e-11	1.018965e-11	1.018918e-11	
9	2.560000e-01	1.019008e-11	1.019008e-11	1.018563e-11	
10	4.560000e-01	1.019166e-11	1.019165e-11	1.018918e-11	
11	6.560000e-01	1.019166e-11	1.019165e-11	1.018918e-11	
12	8.560000e-01	1.019166e-11	1.019165e-11	1.018918e-11	
13	1.000000e+00	1.019160e-11	1.019161e-11	1.018919e-11	
14	1.000100e+00	1.019081e-11	1.019080e-11	1.018918e-11	
15	1.000300e+00	1.019081e-11	1.019080e-11	1.018918e-11	
16	1.000700e+00	1.019065e-11	1.019065e-11	1.018917e-11	
17	1.001000e+00	1.018922e-11	1.018923e-11	1.018563e-11	
18	1.001018e+00	1.019324e-11	1.019324e-11	1.019274e-11	
19	1.001055e+00	1.019324e-11	1.019324e-11	1.019274e-11	
20	1.001129e+00	1.019186e-11	1.019187e-11	1.018918e-11	
21	1.001277e+00	1.019120e-11	1.019120e-11	1.018919e-11	
22	1.001573e+00	1.019085e-11	1.019085e-11	1.018918e-11	
23	1.002165e+00	1.019290e-11	1.019289e-11	1.019273e-11	
24	1.003348e+00	1.018950e-11	1.018950e-11	1.018564e-11	
25	1.005714e+00	1.019220e-11	1.019222e-11	1.018919e-11	
26	1.010447e+00	1.018913e-11	1.018913e-11	1.018562e-11	
27	1.019912e+00	1.018982e-11	1.018982e-11	1.018563e-11	
28	1.038843e+00	1.019017e-11	1.019017e-11	1.018918e-11	
29	1.076704e+00	1.019033e-11	1.019033e-11	1.018918e-11	
30	1.152426e+00	1.019265e-11	1.019265e-11	1.019274e-11	
31	1.303870e+00	1.019157e-11	1.019157e-11	1.018918e-11	
32	1.503870e+00	1.019166e-11	1.019165e-11	1.018918e-11	
33	1.703870e+00	1.019166e-11	1.019165e-11	1.018918e-11	
34	1.903870e+00	1.019166e-11	1.019165e-11	1.018918e-11	
